63	9:25:13	CO2_DevTool.exe	IRP_MJ_READ	Serial3	TIMEOUT	Length 0: 	
66	9:25:13	CO2_DevTool.exe	IRP_MJ_WRITE	Serial3	SUCCESS	Length 7: 68 46 00 00 10 51 4D 	
67	9:25:13	CO2_DevTool.exe	IRP_MJ_READ	Serial3	SUCCESS	Length 21: 68 46 10 00 01 0E 08 0F 10 87 32 00 32 00 19 FF FF FF FF C5 41 	
70	9:25:13	CO2_DevTool.exe	IRP_MJ_READ	Serial3	TIMEOUT	Length 0: 	
74	9:25:13	CO2_DevTool.exe	IRP_MJ_READ	Serial3	TIMEOUT	Length 0: 	
77	9:25:13	CO2_DevTool.exe	IRP_MJ_WRITE	Serial3	SUCCESS	Length 7: 68 46 00 10 10 5C 8D 	
78	9:25:13	CO2_DevTool.exe	IRP_MJ_READ	Serial3	SUCCESS	Length 21: 68 46 10 FF FF FF FF FF FF FF FF FF FF FF FF FF FF FF FF E0 A5 	
81	9:25:13	CO2_DevTool.exe	IRP_MJ_READ	Serial3	TIMEOUT	Length 0: 	
85	9:25:13	CO2_DevTool.exe	IRP_MJ_READ	Serial3	TIMEOUT	Length 0: 	
88	9:25:13	CO2_DevTool.exe	IRP_MJ_WRITE	Serial3	SUCCESS	Length 7: 68 46 00 20 10 48 8D 	
89	9:25:13	CO2_DevTool.exe	IRP_MJ_READ	Serial3	SUCCESS	Length 21: 68 46 10 FF A0 FF FF FF FF FF FF 0F 00 FF FF FF FF FF FF FF D6 	
92	9:25:13	CO2_DevTool.exe	IRP_MJ_READ	Serial3	TIMEOUT	Length 0: 	
96	9:25:13	CO2_DevTool.exe	IRP_MJ_READ	Serial3	TIMEOUT	Length 0: 	
99	9:25:13	CO2_DevTool.exe	IRP_MJ_WRITE	Serial3	SUCCESS	Length 7: 68 46 00 30 10 45 4D 	
100	9:25:13	CO2_DevTool.exe	IRP_MJ_READ	Serial3	SUCCESS	Length 21: 68 46 10 FF FF FF FF FF FF FF FF FF FF FF 68 00 FF FF FF A5 6C 	
103	9:25:13	CO2_DevTool.exe	IRP_MJ_READ	Serial3	TIMEOUT	Length 0: 	
107	9:25:13	CO2_DevTool.exe	IRP_MJ_READ	Serial3	TIMEOUT	Length 0: 	
110	9:25:13	CO2_DevTool.exe	IRP_MJ_WRITE	Serial3	SUCCESS	Length 7: 68 46 00 40 10 60 8D 	
111	9:25:13	CO2_DevTool.exe	IRP_MJ_READ	Serial3	SUCCESS	Length 21: 68 46 10 FF FF 03 B3 03 08 08 F9 FF FF FF FF 00 0E FF FF 47 6D 	
114	9:25:13	CO2_DevTool.exe	IRP_MJ_READ	Serial3	TIMEOUT	Length 0: 	
118	9:25:13	CO2_DevTool.exe	IRP_MJ_READ	Serial3	TIMEOUT	Length 0: 	
121	9:25:13	CO2_DevTool.exe	IRP_MJ_WRITE	Serial3	SUCCESS	Length 7: 68 46 00 50 10 6D 4D 	
122	9:25:13	CO2_DevTool.exe	IRP_MJ_READ	Serial3	SUCCESS	Length 21: 68 46 10 00 00 75 30 00 00 C3 50 00 0A 00 14 00 32 FF FF A6 DC 	
125	9:25:13	CO2_DevTool.exe	IRP_MJ_READ	Serial3	TIMEOUT	Length 0: 	
129	9:25:13	CO2_DevTool.exe	IRP_MJ_READ	Serial3	TIMEOUT	Length 0: 	
132	9:25:13	CO2_DevTool.exe	IRP_MJ_WRITE	Serial3	SUCCESS	Length 7: 68 46 00 60 10 79 4D 	
133	9:25:13	CO2_DevTool.exe	IRP_MJ_READ	Serial3	SUCCESS	Length 21: 68 46 10 30 D4 FF FF FF FF FF FF FF FF FF FF FF FF FF FF 9E 1E 	
136	9:25:13	CO2_DevTool.exe	IRP_MJ_READ	Serial3	TIMEOUT	Length 0: 	
140	9:25:13	CO2_DevTool.exe	IRP_MJ_READ	Serial3	TIMEOUT	Length 0: 	
143	9:25:13	CO2_DevTool.exe	IRP_MJ_WRITE	Serial3	SUCCESS	Length 7: 68 46 00 70 10 74 8D 	
144	9:25:13	CO2_DevTool.exe	IRP_MJ_READ	Serial3	SUCCESS	Length 21: 68 46 10 30 D4 FF FF FF FF FF FF FF FF FF FF FF FF FF FF 9E 1E 	
147	9:25:13	CO2_DevTool.exe	IRP_MJ_READ	Serial3	TIMEOUT	Length 0: 	
151	9:25:13	CO2_DevTool.exe	IRP_MJ_READ	Serial3	TIMEOUT	Length 0: 	
154	9:25:13	CO2_DevTool.exe	IRP_MJ_WRITE	Serial3	SUCCESS	Length 7: 68 46 00 80 10 30 8D 	
155	9:25:13	CO2_DevTool.exe	IRP_MJ_READ	Serial3	SUCCESS	Length 21: 68 46 10 30 D4 FF FF FF FF FF FF FF FF FF FF FF FF FF FF 9E 1E 	
158	9:25:13	CO2_DevTool.exe	IRP_MJ_READ	Serial3	TIMEOUT	Length 0: 	
162	9:25:13	CO2_DevTool.exe	IRP_MJ_READ	Serial3	TIMEOUT	Length 0: 	
165	9:25:13	CO2_DevTool.exe	IRP_MJ_WRITE	Serial3	SUCCESS	Length 7: 68 46 00 90 10 3D 4D 	
166	9:25:13	CO2_DevTool.exe	IRP_MJ_READ	Serial3	SUCCESS	Length 21: 68 46 10 30 D4 FF FF FF FF FF FF FF FF FF FF FF FF FF FF 9E 1E 	
169	9:25:13	CO2_DevTool.exe	IRP_MJ_READ	Serial3	TIMEOUT	Length 0: 	
173	9:25:13	CO2_DevTool.exe	IRP_MJ_READ	Serial3	TIMEOUT	Length 0: 	
176	9:25:13	CO2_DevTool.exe	IRP_MJ_WRITE	Serial3	SUCCESS	Length 7: 68 46 00 A0 10 29 4D 	
177	9:25:13	CO2_DevTool.exe	IRP_MJ_READ	Serial3	SUCCESS	Length 21: 68 46 10 00 00 FF FF FF FF FF FF FF FF FF FF FF FF FF FF 5E 55 	
180	9:25:13	CO2_DevTool.exe	IRP_MJ_READ	Serial3	TIMEOUT	Length 0: 	
184	9:25:13	CO2_DevTool.exe	IRP_MJ_READ	Serial3	TIMEOUT	Length 0: 	
187	9:25:13	CO2_DevTool.exe	IRP_MJ_WRITE	Serial3	SUCCESS	Length 7: 68 46 00 B0 10 24 8D 	
188	9:25:13	CO2_DevTool.exe	IRP_MJ_READ	Serial3	SUCCESS	Length 21: 68 46 10 00 00 FF FF FF FF FF FF FF FF FF FF FF FF FF FF 5E 55 	
191	9:25:13	CO2_DevTool.exe	IRP_MJ_READ	Serial3	TIMEOUT	Length 0: 	
195	9:25:13	CO2_DevTool.exe	IRP_MJ_READ	Serial3	TIMEOUT	Length 0: 	
198	9:25:13	CO2_DevTool.exe	IRP_MJ_WRITE	Serial3	SUCCESS	Length 7: 68 46 00 C0 10 01 4D 	
199	9:25:13	CO2_DevTool.exe	IRP_MJ_READ	Serial3	SUCCESS	Length 21: 68 46 10 00 00 FF FF FF FF FF FF FF FF FF FF FF FF FF FF 5E 55 	
202	9:25:13	CO2_DevTool.exe	IRP_MJ_READ	Serial3	TIMEOUT	Length 0: 	
206	9:25:13	CO2_DevTool.exe	IRP_MJ_READ	Serial3	TIMEOUT	Length 0: 	
209	9:25:13	CO2_DevTool.exe	IRP_MJ_WRITE	Serial3	SUCCESS	Length 7: 68 46 00 D0 10 0C 8D 	
210	9:25:13	CO2_DevTool.exe	IRP_MJ_READ	Serial3	SUCCESS	Length 21: 68 46 10 00 00 FF FF FF FF FF FF FF FF FF FF FF FF FF FF 5E 55 	
213	9:25:13	CO2_DevTool.exe	IRP_MJ_READ	Serial3	TIMEOUT	Length 0: 	
217	9:25:13	CO2_DevTool.exe	IRP_MJ_READ	Serial3	TIMEOUT	Length 0: 	
220	9:25:13	CO2_DevTool.exe	IRP_MJ_WRITE	Serial3	SUCCESS	Length 7: 68 46 00 E0 10 18 8D 	
221	9:25:13	CO2_DevTool.exe	IRP_MJ_READ	Serial3	SUCCESS	Length 21: 68 46 10 00 00 00 00 FF FF FF FF FF FF FF FF FF FF FF FF F5 54 	
224	9:25:13	CO2_DevTool.exe	IRP_MJ_READ	Serial3	TIMEOUT	Length 0: 	
228	9:25:13	CO2_DevTool.exe	IRP_MJ_READ	Serial3	TIMEOUT	Length 0: 	
231	9:25:13	CO2_DevTool.exe	IRP_MJ_WRITE	Serial3	SUCCESS	Length 7: 68 46 00 F0 10 15 4D 	
232	9:25:13	CO2_DevTool.exe	IRP_MJ_READ	Serial3	SUCCESS	Length 21: 68 46 10 FF FF FF FF FF FF FF FF FF FF FF FF FF FF FF FF E0 A5 	
235	9:25:13	CO2_DevTool.exe	IRP_MJ_READ	Serial3	TIMEOUT	Length 0: 	
301	9:25:17	CO2_DevTool.exe	IRP_MJ_READ	Serial3	TIMEOUT	Length 0: 	
304	9:25:17	CO2_DevTool.exe	IRP_MJ_WRITE	Serial3	SUCCESS	Length 8: 68 04 00 1E 00 07 D8 F7 	
305	9:25:17	CO2_DevTool.exe	IRP_MJ_READ	Serial3	SUCCESS	Length 19: 68 04 0E 00 00 00 1D 00 00 00 00 00 00 00 00 00 00 3C 07 	
308	9:25:17	CO2_DevTool.exe	IRP_MJ_READ	Serial3	TIMEOUT	Length 0: 	
312	9:25:17	CO2_DevTool.exe	IRP_MJ_READ	Serial3	TIMEOUT	Length 0: 	
315	9:25:17	CO2_DevTool.exe	IRP_MJ_WRITE	Serial3	SUCCESS	Length 8: 68 04 00 27 00 02 C8 F9 	
316	9:25:17	CO2_DevTool.exe	IRP_MJ_READ	Serial3	SUCCESS	Length 9: 68 04 04 00 00 00 1A 83 49 	
319	9:25:17	CO2_DevTool.exe	IRP_MJ_READ	Serial3	TIMEOUT	Length 0: 	
323	9:25:17	CO2_DevTool.exe	IRP_MJ_READ	Serial3	TIMEOUT	Length 0: 	
326	9:25:17	CO2_DevTool.exe	IRP_MJ_WRITE	Serial3	SUCCESS	Length 8: 68 04 00 2B 00 02 08 FA 	
327	9:25:17	CO2_DevTool.exe	IRP_MJ_READ	Serial3	SUCCESS	Length 9: 68 04 04 00 03 00 1B B2 89 	
330	9:25:17	CO2_DevTool.exe	IRP_MJ_READ	Serial3	TIMEOUT	Length 0: 	
334	9:25:17	CO2_DevTool.exe	IRP_MJ_READ	Serial3	TIMEOUT	Length 0: 	
337	9:25:17	CO2_DevTool.exe	IRP_MJ_WRITE	Serial3	SUCCESS	Length 8: 68 04 00 2F 00 01 09 3A 	
338	9:25:17	CO2_DevTool.exe	IRP_MJ_READ	Serial3	SUCCESS	Length 7: 68 04 02 00 02 64 F8 	
341	9:25:17	CO2_DevTool.exe	IRP_MJ_READ	Serial3	TIMEOUT	Length 0: 	
345	9:25:17	CO2_DevTool.exe	IRP_MJ_READ	Serial3	TIMEOUT	Length 0: 	
348	9:25:17	CO2_DevTool.exe	IRP_MJ_WRITE	Serial3	SUCCESS	Length 8: 68 03 00 02 00 02 6C F2 	
349	9:25:17	CO2_DevTool.exe	IRP_MJ_READ	Serial3	SUCCESS	Length 9: 68 03 04 54 09 4F C3 B7 66 	
352	9:25:17	CO2_DevTool.exe	IRP_MJ_READ	Serial3	TIMEOUT	Length 0: 	